HEADER
"PSFversion" "1.00"
"simulator" "spectre"
"version" "18.1.0.077"
"date" "2:48:25 PM, Sun Jun 14, 2026"
"design" "// Generated for: spectre"
"analysis type" "ac"
"analysis name" "ac"
"analysis description" "AC Analysis `ac': freq = (10 Hz -> 500 MHz)"
"xVecSorted" "ascending"
"tolerance.relative" 0.00100000
"start" 10.0000
"stop" 5.00000e+08
"operating point producer" "ac"
TYPE
"sweep" FLOAT DOUBLE PROP(
"key" "sweep"
)
"Real" COMPLEX DOUBLE PROP(
"units" ""
"key" "node"
"tolerance" 1.00000e-06
)
"Tau" COMPLEX DOUBLE PROP(
"units" "N*m"
"key" "node"
"tolerance" 1.00000e-06
)
"Alpha" COMPLEX DOUBLE PROP(
"units" "rads/s^2"
"key" "node"
"tolerance" 1.00000e-06
)
"Omega" COMPLEX DOUBLE PROP(
"units" "rads/s"
"key" "node"
"tolerance" 1.00000e-06
)
"Theta" COMPLEX DOUBLE PROP(
"units" "rads"
"key" "node"
"tolerance" 1.00000e-06
)
"F" COMPLEX DOUBLE PROP(
"units" "N"
"key" "node"
"tolerance" 1.00000e-06
)
"Imp" COMPLEX DOUBLE PROP(
"units" "m/s^3"
"key" "node"
"tolerance" 1.00000e-06
)
"Acc" COMPLEX DOUBLE PROP(
"units" "m/s^2"
"key" "node"
"tolerance" 1.00000e-06
)
"Vel" COMPLEX DOUBLE PROP(
"units" "m/s"
"key" "node"
"tolerance" 1.00000e-06
)
"Pos" COMPLEX DOUBLE PROP(
"units" "m"
"key" "node"
"tolerance" 1.00000e-06
)
"Phi" COMPLEX DOUBLE PROP(
"units" "Wb"
"key" "node"
"tolerance" 1.00000e-09
)
"V" COMPLEX DOUBLE PROP(
"units" "V"
"key" "node"
"tolerance" 1.00000e-06
)
"I" COMPLEX DOUBLE PROP(
"units" "A"
"key" "branch"
"tolerance" 1.00000e-12
)
"MMF" COMPLEX DOUBLE PROP(
"units" "A*turn"
"key" "node"
"tolerance" 1.00000e-12
)
"Wb" COMPLEX DOUBLE PROP(
"units" "Wb"
"key" "node"
"tolerance" 1.00000e-09
)
"Temp" COMPLEX DOUBLE PROP(
"units" "C"
"key" "node"
"tolerance" 0.000100000
)
"Pwr" COMPLEX DOUBLE PROP(
"units" "W"
"key" "node"
"tolerance" 1.00000e-09
)
"U" COMPLEX DOUBLE PROP(
"units" ""
"key" "node"
"tolerance" 1.00000e-06
)
"V/Sec" COMPLEX DOUBLE PROP(
"units" "V/s"
"key" "node"
"tolerance" 0.000100000
)
"I/Sec" COMPLEX DOUBLE PROP(
"units" "A/s"
"key" "node"
"tolerance" 1.00000e-06
)
"1/Sec" COMPLEX DOUBLE PROP(
"units" "1/s"
"key" "node"
"tolerance" 0.000100000
)
"HOD" COMPLEX DOUBLE PROP(
"units" ""
"key" "node"
"tolerance" 0.0100000
)
"Q" COMPLEX DOUBLE PROP(
"units" "coul"
"key" "node"
"tolerance" 1.00000e-14
)
SWEEP
"freq" "sweep" PROP(
"sweep_direction" 0
"units" "Hz"
"plot" 0
"grid" 3
)
TRACE
"AGND" "V"
"AVDD" "V"
"BIAS_EN" "V"
"IBIAS_1U" "V"
"IBIAS_500N" "V"
"PLL_CTRL<0>" "V"
"PLL_CTRL<1>" "V"
"PLL_CTRL<2>" "V"
"PLL_CTRL<3>" "V"
"PLL_EN" "V"
"TEST_CTRL<0>" "V"
"TEST_CTRL<1>" "V"
"TEST_CTRL<2>" "V"
"TEST_CTRL<3>" "V"
"V0:p" "I"
"V1:p" "I"
"V2:p" "I"
"V3:p" "I"
"V4:p" "I"
"V5:p" "I"
"VCO_CTRL<0>" "V"
"VCO_CTRL<1>" "V"
"VCO_CTRL<2>" "V"
"VCO_CTRL<3>" "V"
"VCO_EN" "V"
"VDD0P8_PLL" "V"
"VDD0P8_VCO" "V"
"VDD1P0" "V"
"VDD1P8" "V"
"Vin" "V"
"Vprobe_i1u:p" "I"
"Vprobe_i500n:p" "I"
"I26.IBIAS" "V"
"I26.VREF" "V"
VALUE
"freq" 1.000000000000000e+01
"AGND" (0.00000 0.00000)
"AVDD" (0.00000 0.00000)
"BIAS_EN" (0.00000 0.00000)
"IBIAS_1U" (0.00000 0.00000)
"IBIAS_500N" (0.00000 0.00000)
"PLL_CTRL<0>" (0.00000 0.00000)
"PLL_CTRL<1>" (0.00000 0.00000)
"PLL_CTRL<2>" (0.00000 0.00000)
"PLL_CTRL<3>" (0.00000 0.00000)
"PLL_EN" (0.00000 0.00000)
"TEST_CTRL<0>" (0.00000 0.00000)
"TEST_CTRL<1>" (0.00000 0.00000)
"TEST_CTRL<2>" (0.00000 0.00000)
"TEST_CTRL<3>" (0.00000 0.00000)
"V0:p" (0.00000 0.00000)
"V1:p" (1.00000 0.00000)
"V2:p" (0.00000 0.00000)
"V3:p" (0.00000 0.00000)
"V4:p" (0.00000 0.00000)
"V5:p" (0.00000 0.00000)
"VCO_CTRL<0>" (0.00000 0.00000)
"VCO_CTRL<1>" (0.00000 0.00000)
"VCO_CTRL<2>" (0.00000 0.00000)
"VCO_CTRL<3>" (0.00000 0.00000)
"VCO_EN" (0.00000 0.00000)
"VDD0P8_PLL" (0.125000 -9.81748e-10)
"VDD0P8_VCO" (0.00000 0.00000)
"VDD1P0" (0.00000 0.00000)
"VDD1P8" (0.00000 0.00000)
"Vin" (0.00000 0.00000)
"Vprobe_i1u:p" (0.00000 0.00000)
"Vprobe_i500n:p" (0.00000 0.00000)
"I26.IBIAS" (0.00000 0.00000)
"I26.VREF" (0.00000 0.00000)
"freq" 1.425539974285017e+01
"AGND" (0.00000 0.00000)
"AVDD" (0.00000 0.00000)
"BIAS_EN" (0.00000 0.00000)
"IBIAS_1U" (0.00000 0.00000)
"IBIAS_500N" (0.00000 0.00000)
"PLL_CTRL<0>" (0.00000 0.00000)
"PLL_CTRL<1>" (0.00000 0.00000)
"PLL_CTRL<2>" (0.00000 0.00000)
"PLL_CTRL<3>" (0.00000 0.00000)
"PLL_EN" (0.00000 0.00000)
"TEST_CTRL<0>" (0.00000 0.00000)
"TEST_CTRL<1>" (0.00000 0.00000)
"TEST_CTRL<2>" (0.00000 0.00000)
"TEST_CTRL<3>" (0.00000 0.00000)
"V0:p" (0.00000 0.00000)
"V1:p" (1.00000 0.00000)
"V2:p" (0.00000 0.00000)
"V3:p" (0.00000 0.00000)
"V4:p" (0.00000 0.00000)
"V5:p" (0.00000 0.00000)
"VCO_CTRL<0>" (0.00000 0.00000)
"VCO_CTRL<1>" (0.00000 0.00000)
"VCO_CTRL<2>" (0.00000 0.00000)
"VCO_CTRL<3>" (0.00000 0.00000)
"VCO_EN" (0.00000 0.00000)
"VDD0P8_PLL" (0.125000 -1.39952e-09)
"VDD0P8_VCO" (0.00000 0.00000)
"VDD1P0" (0.00000 0.00000)
"VDD1P8" (0.00000 0.00000)
"Vin" (0.00000 0.00000)
"Vprobe_i1u:p" (0.00000 0.00000)
"Vprobe_i500n:p" (0.00000 0.00000)
"I26.IBIAS" (0.00000 0.00000)
"I26.VREF" (0.00000 0.00000)
"freq" 2.032164218284528e+01
"AGND" (0.00000 0.00000)
"AVDD" (0.00000 0.00000)
"BIAS_EN" (0.00000 0.00000)
"IBIAS_1U" (0.00000 0.00000)
"IBIAS_500N" (0.00000 0.00000)
"PLL_CTRL<0>" (0.00000 0.00000)
"PLL_CTRL<1>" (0.00000 0.00000)
"PLL_CTRL<2>" (0.00000 0.00000)
"PLL_CTRL<3>" (0.00000 0.00000)
"PLL_EN" (0.00000 0.00000)
"TEST_CTRL<0>" (0.00000 0.00000)
"TEST_CTRL<1>" (0.00000 0.00000)
"TEST_CTRL<2>" (0.00000 0.00000)
"TEST_CTRL<3>" (0.00000 0.00000)
"V0:p" (0.00000 0.00000)
"V1:p" (1.00000 0.00000)
"V2:p" (0.00000 0.00000)
"V3:p" (0.00000 0.00000)
"V4:p" (0.00000 0.00000)
"V5:p" (0.00000 0.00000)
"VCO_CTRL<0>" (0.00000 0.00000)
"VCO_CTRL<1>" (0.00000 0.00000)
"VCO_CTRL<2>" (0.00000 0.00000)
"VCO_CTRL<3>" (0.00000 0.00000)
"VCO_EN" (0.00000 0.00000)
"VDD0P8_PLL" (0.125000 -1.99507e-09)
"VDD0P8_VCO" (0.00000 0.00000)
"VDD1P0" (0.00000 0.00000)
"VDD1P8" (0.00000 0.00000)
"Vin" (0.00000 0.00000)
"Vprobe_i1u:p" (0.00000 0.00000)
"Vprobe_i500n:p" (0.00000 0.00000)
"I26.IBIAS" (0.00000 0.00000)
"I26.VREF" (0.00000 0.00000)
"freq" 2.896931327476258e+01
"AGND" (0.00000 0.00000)
"AVDD" (0.00000 0.00000)
"BIAS_EN" (0.00000 0.00000)
"IBIAS_1U" (0.00000 0.00000)
"IBIAS_500N" (0.00000 0.00000)
"PLL_CTRL<0>" (0.00000 0.00000)
"PLL_CTRL<1>" (0.00000 0.00000)
"PLL_CTRL<2>" (0.00000 0.00000)
"PLL_CTRL<3>" (0.00000 0.00000)
"PLL_EN" (0.00000 0.00000)
"TEST_CTRL<0>" (0.00000 0.00000)
"TEST_CTRL<1>" (0.00000 0.00000)
"TEST_CTRL<2>" (0.00000 0.00000)
"TEST_CTRL<3>" (0.00000 0.00000)
"V0:p" (0.00000 0.00000)
"V1:p" (1.00000 0.00000)
"V2:p" (0.00000 0.00000)
"V3:p" (0.00000 0.00000)
"V4:p" (0.00000 0.00000)
"V5:p" (0.00000 0.00000)
"VCO_CTRL<0>" (0.00000 0.00000)
"VCO_CTRL<1>" (0.00000 0.00000)
"VCO_CTRL<2>" (0.00000 0.00000)
"VCO_CTRL<3>" (0.00000 0.00000)
"VCO_EN" (0.00000 0.00000)
"VDD0P8_PLL" (0.125000 -2.84406e-09)
"VDD0P8_VCO" (0.00000 0.00000)
"VDD1P0" (0.00000 0.00000)
"VDD1P8" (0.00000 0.00000)
"Vin" (0.00000 0.00000)
"Vprobe_i1u:p" (0.00000 0.00000)
"Vprobe_i500n:p" (0.00000 0.00000)
"I26.IBIAS" (0.00000 0.00000)
"I26.VREF" (0.00000 0.00000)
"freq" 4.129691410075965e+01
"AGND" (0.00000 0.00000)
"AVDD" (0.00000 0.00000)
"BIAS_EN" (0.00000 0.00000)
"IBIAS_1U" (0.00000 0.00000)
"IBIAS_500N" (0.00000 0.00000)
"PLL_CTRL<0>" (0.00000 0.00000)
"PLL_CTRL<1>" (0.00000 0.00000)
"PLL_CTRL<2>" (0.00000 0.00000)
"PLL_CTRL<3>" (0.00000 0.00000)
"PLL_EN" (0.00000 0.00000)
"TEST_CTRL<0>" (0.00000 0.00000)
"TEST_CTRL<1>" (0.00000 0.00000)
"TEST_CTRL<2>" (0.00000 0.00000)
"TEST_CTRL<3>" (0.00000 0.00000)
"V0:p" (0.00000 0.00000)
"V1:p" (1.00000 0.00000)
"V2:p" (0.00000 0.00000)
"V3:p" (0.00000 0.00000)
"V4:p" (0.00000 0.00000)
"V5:p" (0.00000 0.00000)
"VCO_CTRL<0>" (0.00000 0.00000)
"VCO_CTRL<1>" (0.00000 0.00000)
"VCO_CTRL<2>" (0.00000 0.00000)
"VCO_CTRL<3>" (0.00000 0.00000)
"VCO_EN" (0.00000 0.00000)
"VDD0P8_PLL" (0.125000 -4.05432e-09)
"VDD0P8_VCO" (0.00000 0.00000)
"VDD1P0" (0.00000 0.00000)
"VDD1P8" (0.00000 0.00000)
"Vin" (0.00000 0.00000)
"Vprobe_i1u:p" (0.00000 0.00000)
"Vprobe_i500n:p" (0.00000 0.00000)
"I26.IBIAS" (0.00000 0.00000)
"I26.VREF" (0.00000 0.00000)
"freq" 5.887040186524748e+01
"AGND" (0.00000 0.00000)
"AVDD" (0.00000 0.00000)
"BIAS_EN" (0.00000 0.00000)
"IBIAS_1U" (0.00000 0.00000)
"IBIAS_500N" (0.00000 0.00000)
"PLL_CTRL<0>" (0.00000 0.00000)
"PLL_CTRL<1>" (0.00000 0.00000)
"PLL_CTRL<2>" (0.00000 0.00000)
"PLL_CTRL<3>" (0.00000 0.00000)
"PLL_EN" (0.00000 0.00000)
"TEST_CTRL<0>" (0.00000 0.00000)
"TEST_CTRL<1>" (0.00000 0.00000)
"TEST_CTRL<2>" (0.00000 0.00000)
"TEST_CTRL<3>" (0.00000 0.00000)
"V0:p" (0.00000 0.00000)
"V1:p" (1.00000 0.00000)
"V2:p" (0.00000 0.00000)
"V3:p" (0.00000 0.00000)
"V4:p" (0.00000 0.00000)
"V5:p" (0.00000 0.00000)
"VCO_CTRL<0>" (0.00000 0.00000)
"VCO_CTRL<1>" (0.00000 0.00000)
"VCO_CTRL<2>" (0.00000 0.00000)
"VCO_CTRL<3>" (0.00000 0.00000)
"VCO_EN" (0.00000 0.00000)
"VDD0P8_PLL" (0.125000 -5.77959e-09)
"VDD0P8_VCO" (0.00000 0.00000)
"VDD1P0" (0.00000 0.00000)
"VDD1P8" (0.00000 0.00000)
"Vin" (0.00000 0.00000)
"Vprobe_i1u:p" (0.00000 0.00000)
"Vprobe_i500n:p" (0.00000 0.00000)
"I26.IBIAS" (0.00000 0.00000)
"I26.VREF" (0.00000 0.00000)
"freq" 8.392211116113353e+01
"AGND" (0.00000 0.00000)
"AVDD" (0.00000 0.00000)
"BIAS_EN" (0.00000 0.00000)
"IBIAS_1U" (0.00000 0.00000)
"IBIAS_500N" (0.00000 0.00000)
"PLL_CTRL<0>" (0.00000 0.00000)
"PLL_CTRL<1>" (0.00000 0.00000)
"PLL_CTRL<2>" (0.00000 0.00000)
"PLL_CTRL<3>" (0.00000 0.00000)
"PLL_EN" (0.00000 0.00000)
"TEST_CTRL<0>" (0.00000 0.00000)
"TEST_CTRL<1>" (0.00000 0.00000)
"TEST_CTRL<2>" (0.00000 0.00000)
"TEST_CTRL<3>" (0.00000 0.00000)
"V0:p" (0.00000 0.00000)
"V1:p" (1.00000 0.00000)
"V2:p" (0.00000 0.00000)
"V3:p" (0.00000 0.00000)
"V4:p" (0.00000 0.00000)
"V5:p" (0.00000 0.00000)
"VCO_CTRL<0>" (0.00000 0.00000)
"VCO_CTRL<1>" (0.00000 0.00000)
"VCO_CTRL<2>" (0.00000 0.00000)
"VCO_CTRL<3>" (0.00000 0.00000)
"VCO_EN" (0.00000 0.00000)
"VDD0P8_PLL" (0.125000 -8.23903e-09)
"VDD0P8_VCO" (0.00000 0.00000)
"VDD1P0" (0.00000 0.00000)
"VDD1P8" (0.00000 0.00000)
"Vin" (0.00000 0.00000)
"Vprobe_i1u:p" (0.00000 0.00000)
"Vprobe_i500n:p" (0.00000 0.00000)
"I26.IBIAS" (0.00000 0.00000)
"I26.VREF" (0.00000 0.00000)
"freq" 1.196343241865867e+02
"AGND" (0.00000 0.00000)
"AVDD" (0.00000 0.00000)
"BIAS_EN" (0.00000 0.00000)
"IBIAS_1U" (0.00000 0.00000)
"IBIAS_500N" (0.00000 0.00000)
"PLL_CTRL<0>" (0.00000 0.00000)
"PLL_CTRL<1>" (0.00000 0.00000)
"PLL_CTRL<2>" (0.00000 0.00000)
"PLL_CTRL<3>" (0.00000 0.00000)
"PLL_EN" (0.00000 0.00000)
"TEST_CTRL<0>" (0.00000 0.00000)
"TEST_CTRL<1>" (0.00000 0.00000)
"TEST_CTRL<2>" (0.00000 0.00000)
"TEST_CTRL<3>" (0.00000 0.00000)
"V0:p" (0.00000 0.00000)
"V1:p" (1.00000 0.00000)
"V2:p" (0.00000 0.00000)
"V3:p" (0.00000 0.00000)
"V4:p" (0.00000 0.00000)
"V5:p" (0.00000 0.00000)
"VCO_CTRL<0>" (0.00000 0.00000)
"VCO_CTRL<1>" (0.00000 0.00000)
"VCO_CTRL<2>" (0.00000 0.00000)
"VCO_CTRL<3>" (0.00000 0.00000)
"VCO_EN" (0.00000 0.00000)
"VDD0P8_PLL" (0.125000 -1.17451e-08)
"VDD0P8_VCO" (0.00000 0.00000)
"VDD1P0" (0.00000 0.00000)
"VDD1P8" (0.00000 0.00000)
"Vin" (0.00000 0.00000)
"Vprobe_i1u:p" (0.00000 0.00000)
"Vprobe_i500n:p" (0.00000 0.00000)
"I26.IBIAS" (0.00000 0.00000)
"I26.VREF" (0.00000 0.00000)
"freq" 1.705435114245522e+02
"AGND" (0.00000 0.00000)
"AVDD" (0.00000 0.00000)
"BIAS_EN" (0.00000 0.00000)
"IBIAS_1U" (0.00000 0.00000)
"IBIAS_500N" (0.00000 0.00000)
"PLL_CTRL<0>" (0.00000 0.00000)
"PLL_CTRL<1>" (0.00000 0.00000)
"PLL_CTRL<2>" (0.00000 0.00000)
"PLL_CTRL<3>" (0.00000 0.00000)
"PLL_EN" (0.00000 0.00000)
"TEST_CTRL<0>" (0.00000 0.00000)
"TEST_CTRL<1>" (0.00000 0.00000)
"TEST_CTRL<2>" (0.00000 0.00000)
"TEST_CTRL<3>" (0.00000 0.00000)
"V0:p" (0.00000 0.00000)
"V1:p" (1.00000 0.00000)
"V2:p" (0.00000 0.00000)
"V3:p" (0.00000 0.00000)
"V4:p" (0.00000 0.00000)
"V5:p" (0.00000 0.00000)
"VCO_CTRL<0>" (0.00000 0.00000)
"VCO_CTRL<1>" (0.00000 0.00000)
"VCO_CTRL<2>" (0.00000 0.00000)
"VCO_CTRL<3>" (0.00000 0.00000)
"VCO_EN" (0.00000 0.00000)
"VDD0P8_PLL" (0.125000 -1.67431e-08)
"VDD0P8_VCO" (0.00000 0.00000)
"VDD1P0" (0.00000 0.00000)
"VDD1P8" (0.00000 0.00000)
"Vin" (0.00000 0.00000)
"Vprobe_i1u:p" (0.00000 0.00000)
"Vprobe_i500n:p" (0.00000 0.00000)
"I26.IBIAS" (0.00000 0.00000)
"I26.VREF" (0.00000 0.00000)
"freq" 2.431165928906326e+02
"AGND" (0.00000 0.00000)
"AVDD" (0.00000 0.00000)
"BIAS_EN" (0.00000 0.00000)
"IBIAS_1U" (0.00000 0.00000)
"IBIAS_500N" (0.00000 0.00000)
"PLL_CTRL<0>" (0.00000 0.00000)
"PLL_CTRL<1>" (0.00000 0.00000)
"PLL_CTRL<2>" (0.00000 0.00000)
"PLL_CTRL<3>" (0.00000 0.00000)
"PLL_EN" (0.00000 0.00000)
"TEST_CTRL<0>" (0.00000 0.00000)
"TEST_CTRL<1>" (0.00000 0.00000)
"TEST_CTRL<2>" (0.00000 0.00000)
"TEST_CTRL<3>" (0.00000 0.00000)
"V0:p" (0.00000 0.00000)
"V1:p" (1.00000 0.00000)
"V2:p" (0.00000 0.00000)
"V3:p" (0.00000 0.00000)
"V4:p" (0.00000 0.00000)
"V5:p" (0.00000 0.00000)
"VCO_CTRL<0>" (0.00000 0.00000)
"VCO_CTRL<1>" (0.00000 0.00000)
"VCO_CTRL<2>" (0.00000 0.00000)
"VCO_CTRL<3>" (0.00000 0.00000)
"VCO_EN" (0.00000 0.00000)
"VDD0P8_PLL" (0.125000 -2.38679e-08)
"VDD0P8_VCO" (0.00000 0.00000)
"VDD1P0" (0.00000 0.00000)
"VDD1P8" (0.00000 0.00000)
"Vin" (0.00000 0.00000)
"Vprobe_i1u:p" (0.00000 0.00000)
"Vprobe_i500n:p" (0.00000 0.00000)
"I26.IBIAS" (0.00000 0.00000)
"I26.VREF" (0.00000 0.00000)
"freq" 3.465724215775734e+02
"AGND" (0.00000 0.00000)
"AVDD" (0.00000 0.00000)
"BIAS_EN" (0.00000 0.00000)
"IBIAS_1U" (0.00000 0.00000)
"IBIAS_500N" (0.00000 0.00000)
"PLL_CTRL<0>" (0.00000 0.00000)
"PLL_CTRL<1>" (0.00000 0.00000)
"PLL_CTRL<2>" (0.00000 0.00000)
"PLL_CTRL<3>" (0.00000 0.00000)
"PLL_EN" (0.00000 0.00000)
"TEST_CTRL<0>" (0.00000 0.00000)
"TEST_CTRL<1>" (0.00000 0.00000)
"TEST_CTRL<2>" (0.00000 0.00000)
"TEST_CTRL<3>" (0.00000 0.00000)
"V0:p" (0.00000 0.00000)
"V1:p" (1.00000 0.00000)
"V2:p" (0.00000 0.00000)
"V3:p" (0.00000 0.00000)
"V4:p" (0.00000 0.00000)
"V5:p" (0.00000 0.00000)
"VCO_CTRL<0>" (0.00000 0.00000)
"VCO_CTRL<1>" (0.00000 0.00000)
"VCO_CTRL<2>" (0.00000 0.00000)
"VCO_CTRL<3>" (0.00000 0.00000)
"VCO_EN" (0.00000 0.00000)
"VDD0P8_PLL" (0.125000 -3.40247e-08)
"VDD0P8_VCO" (0.00000 0.00000)
"VDD1P0" (0.00000 0.00000)
"VDD1P8" (0.00000 0.00000)
"Vin" (0.00000 0.00000)
"Vprobe_i1u:p" (0.00000 0.00000)
"Vprobe_i500n:p" (0.00000 0.00000)
"I26.IBIAS" (0.00000 0.00000)
"I26.VREF" (0.00000 0.00000)
"freq" 4.940528409435901e+02
"AGND" (0.00000 0.00000)
"AVDD" (0.00000 0.00000)
"BIAS_EN" (0.00000 0.00000)
"IBIAS_1U" (0.00000 0.00000)
"IBIAS_500N" (0.00000 0.00000)
"PLL_CTRL<0>" (0.00000 0.00000)
"PLL_CTRL<1>" (0.00000 0.00000)
"PLL_CTRL<2>" (0.00000 0.00000)
"PLL_CTRL<3>" (0.00000 0.00000)
"PLL_EN" (0.00000 0.00000)
"TEST_CTRL<0>" (0.00000 0.00000)
"TEST_CTRL<1>" (0.00000 0.00000)
"TEST_CTRL<2>" (0.00000 0.00000)
"TEST_CTRL<3>" (0.00000 0.00000)
"V0:p" (0.00000 0.00000)
"V1:p" (1.00000 0.00000)
"V2:p" (0.00000 0.00000)
"V3:p" (0.00000 0.00000)
"V4:p" (0.00000 0.00000)
"V5:p" (0.00000 0.00000)
"VCO_CTRL<0>" (0.00000 0.00000)
"VCO_CTRL<1>" (0.00000 0.00000)
"VCO_CTRL<2>" (0.00000 0.00000)
"VCO_CTRL<3>" (0.00000 0.00000)
"VCO_EN" (0.00000 0.00000)
"VDD0P8_PLL" (0.125000 -4.85035e-08)
"VDD0P8_VCO" (0.00000 0.00000)
"VDD1P0" (0.00000 0.00000)
"VDD1P8" (0.00000 0.00000)
"Vin" (0.00000 0.00000)
"Vprobe_i1u:p" (0.00000 0.00000)
"Vprobe_i500n:p" (0.00000 0.00000)
"I26.IBIAS" (0.00000 0.00000)
"I26.VREF" (0.00000 0.00000)
"freq" 7.042920741741651e+02
"AGND" (0.00000 0.00000)
"AVDD" (0.00000 0.00000)
"BIAS_EN" (0.00000 0.00000)
"IBIAS_1U" (0.00000 0.00000)
"IBIAS_500N" (0.00000 0.00000)
"PLL_CTRL<0>" (0.00000 0.00000)
"PLL_CTRL<1>" (0.00000 0.00000)
"PLL_CTRL<2>" (0.00000 0.00000)
"PLL_CTRL<3>" (0.00000 0.00000)
"PLL_EN" (0.00000 0.00000)
"TEST_CTRL<0>" (0.00000 0.00000)
"TEST_CTRL<1>" (0.00000 0.00000)
"TEST_CTRL<2>" (0.00000 0.00000)
"TEST_CTRL<3>" (0.00000 0.00000)
"V0:p" (0.00000 0.00000)
"V1:p" (1.00000 0.00000)
"V2:p" (0.00000 0.00000)
"V3:p" (0.00000 0.00000)
"V4:p" (0.00000 0.00000)
"V5:p" (0.00000 0.00000)
"VCO_CTRL<0>" (0.00000 0.00000)
"VCO_CTRL<1>" (0.00000 0.00000)
"VCO_CTRL<2>" (0.00000 0.00000)
"VCO_CTRL<3>" (0.00000 0.00000)
"VCO_EN" (0.00000 0.00000)
"VDD0P8_PLL" (0.125000 -6.91437e-08)
"VDD0P8_VCO" (0.00000 0.00000)
"VDD1P0" (0.00000 0.00000)
"VDD1P8" (0.00000 0.00000)
"Vin" (0.00000 0.00000)
"Vprobe_i1u:p" (0.00000 0.00000)
"Vprobe_i500n:p" (0.00000 0.00000)
"I26.IBIAS" (0.00000 0.00000)
"I26.VREF" (0.00000 0.00000)
"freq" 1.003996505307381e+03
"AGND" (0.00000 0.00000)
"AVDD" (0.00000 0.00000)
"BIAS_EN" (0.00000 0.00000)
"IBIAS_1U" (0.00000 0.00000)
"IBIAS_500N" (0.00000 0.00000)
"PLL_CTRL<0>" (0.00000 0.00000)
"PLL_CTRL<1>" (0.00000 0.00000)
"PLL_CTRL<2>" (0.00000 0.00000)
"PLL_CTRL<3>" (0.00000 0.00000)
"PLL_EN" (0.00000 0.00000)
"TEST_CTRL<0>" (0.00000 0.00000)
"TEST_CTRL<1>" (0.00000 0.00000)
"TEST_CTRL<2>" (0.00000 0.00000)
"TEST_CTRL<3>" (0.00000 0.00000)
"V0:p" (0.00000 0.00000)
"V1:p" (1.00000 0.00000)
"V2:p" (0.00000 0.00000)
"V3:p" (0.00000 0.00000)
"V4:p" (0.00000 0.00000)
"V5:p" (0.00000 0.00000)
"VCO_CTRL<0>" (0.00000 0.00000)
"VCO_CTRL<1>" (0.00000 0.00000)
"VCO_CTRL<2>" (0.00000 0.00000)
"VCO_CTRL<3>" (0.00000 0.00000)
"VCO_EN" (0.00000 0.00000)
"VDD0P8_PLL" (0.125000 -9.85671e-08)
"VDD0P8_VCO" (0.00000 0.00000)
"VDD1P0" (0.00000 0.00000)
"VDD1P8" (0.00000 0.00000)
"Vin" (0.00000 0.00000)
"Vprobe_i1u:p" (0.00000 0.00000)
"Vprobe_i500n:p" (0.00000 0.00000)
"I26.IBIAS" (0.00000 0.00000)
"I26.VREF" (0.00000 0.00000)
"freq" 1.431237152358131e+03
"AGND" (0.00000 0.00000)
"AVDD" (0.00000 0.00000)
"BIAS_EN" (0.00000 0.00000)
"IBIAS_1U" (0.00000 0.00000)
"IBIAS_500N" (0.00000 0.00000)
"PLL_CTRL<0>" (0.00000 0.00000)
"PLL_CTRL<1>" (0.00000 0.00000)
"PLL_CTRL<2>" (0.00000 0.00000)
"PLL_CTRL<3>" (0.00000 0.00000)
"PLL_EN" (0.00000 0.00000)
"TEST_CTRL<0>" (0.00000 0.00000)
"TEST_CTRL<1>" (0.00000 0.00000)
"TEST_CTRL<2>" (0.00000 0.00000)
"TEST_CTRL<3>" (0.00000 0.00000)
"V0:p" (0.00000 0.00000)
"V1:p" (1.00000 0.00000)
"V2:p" (0.00000 0.00000)
"V3:p" (0.00000 0.00000)
"V4:p" (0.00000 0.00000)
"V5:p" (0.00000 0.00000)
"VCO_CTRL<0>" (0.00000 0.00000)
"VCO_CTRL<1>" (0.00000 0.00000)
"VCO_CTRL<2>" (0.00000 0.00000)
"VCO_CTRL<3>" (0.00000 0.00000)
"VCO_EN" (0.00000 0.00000)
"VDD0P8_PLL" (0.125000 -1.40511e-07)
"VDD0P8_VCO" (0.00000 0.00000)
"VDD1P0" (0.00000 0.00000)
"VDD1P8" (0.00000 0.00000)
"Vin" (0.00000 0.00000)
"Vprobe_i1u:p" (0.00000 0.00000)
"Vprobe_i500n:p" (0.00000 0.00000)
"I26.IBIAS" (0.00000 0.00000)
"I26.VREF" (0.00000 0.00000)
"freq" 2.040285773368371e+03
"AGND" (0.00000 0.00000)
"AVDD" (0.00000 0.00000)
"BIAS_EN" (0.00000 0.00000)
"IBIAS_1U" (0.00000 0.00000)
"IBIAS_500N" (0.00000 0.00000)
"PLL_CTRL<0>" (0.00000 0.00000)
"PLL_CTRL<1>" (0.00000 0.00000)
"PLL_CTRL<2>" (0.00000 0.00000)
"PLL_CTRL<3>" (0.00000 0.00000)
"PLL_EN" (0.00000 0.00000)
"TEST_CTRL<0>" (0.00000 0.00000)
"TEST_CTRL<1>" (0.00000 0.00000)
"TEST_CTRL<2>" (0.00000 0.00000)
"TEST_CTRL<3>" (0.00000 0.00000)
"V0:p" (0.00000 0.00000)
"V1:p" (1.00000 0.00000)
"V2:p" (0.00000 0.00000)
"V3:p" (0.00000 0.00000)
"V4:p" (0.00000 0.00000)
"V5:p" (0.00000 0.00000)
"VCO_CTRL<0>" (0.00000 0.00000)
"VCO_CTRL<1>" (0.00000 0.00000)
"VCO_CTRL<2>" (0.00000 0.00000)
"VCO_CTRL<3>" (0.00000 0.00000)
"VCO_EN" (0.00000 0.00000)
"VDD0P8_PLL" (0.125000 -2.00305e-07)
"VDD0P8_VCO" (0.00000 0.00000)
"VDD1P0" (0.00000 0.00000)
"VDD1P8" (0.00000 0.00000)
"Vin" (0.00000 0.00000)
"Vprobe_i1u:p" (0.00000 0.00000)
"Vprobe_i500n:p" (0.00000 0.00000)
"I26.IBIAS" (0.00000 0.00000)
"I26.VREF" (0.00000 0.00000)
"freq" 2.908508928901634e+03
"AGND" (0.00000 0.00000)
"AVDD" (0.00000 0.00000)
"BIAS_EN" (0.00000 0.00000)
"IBIAS_1U" (0.00000 0.00000)
"IBIAS_500N" (0.00000 0.00000)
"PLL_CTRL<0>" (0.00000 0.00000)
"PLL_CTRL<1>" (0.00000 0.00000)
"PLL_CTRL<2>" (0.00000 0.00000)
"PLL_CTRL<3>" (0.00000 0.00000)
"PLL_EN" (0.00000 0.00000)
"TEST_CTRL<0>" (0.00000 0.00000)
"TEST_CTRL<1>" (0.00000 0.00000)
"TEST_CTRL<2>" (0.00000 0.00000)
"TEST_CTRL<3>" (0.00000 0.00000)
"V0:p" (0.00000 0.00000)
"V1:p" (1.00000 0.00000)
"V2:p" (0.00000 0.00000)
"V3:p" (0.00000 0.00000)
"V4:p" (0.00000 0.00000)
"V5:p" (0.00000 0.00000)
